T2D8C 000:009.540   SEGGER J-Link V6.98 Log File
T2D8C 000:009.736   DLL Compiled: Mar  2 2021 15:48:59
T2D8C 000:009.743   Logging started @ 2025-07-24 03:23
T2D8C 000:009.747 - 9.749ms
T2D8C 000:009.762 JLINK_SetWarnOutHandler(...)
T2D8C 000:009.767 - 0.007ms
T2D8C 000:009.772 JLINK_OpenEx(...)
T2D8C 000:014.545   Firmware: J-Link V9 compiled Dec  8 2023 20:16:22
T2D8C 000:015.423   Firmware: J-Link V9 compiled Dec  8 2023 20:16:22
T2D8C 000:015.582   Decompressing FW timestamp took 117 us
T2D8C 000:024.512   Hardware: V9.70
T2D8C 000:024.541   S/N: 602717820
T2D8C 000:024.547   OEM: SEGGER
T2D8C 000:024.558   Feature(s): GDB, RDI, FlashBP, FlashDL, JFlash
T2D8C 000:033.698   TELNET listener socket opened on port 19021
T2D8C 000:033.887   WEBSRV Starting webserver
T2D8C 000:033.945   WEBSRV Failed to put socket into listener state (port 19080)
T2D8C 000:034.074   WEBSRV Webserver running on local port 19081
T2D8C 000:034.081 - 24.317ms returns "O.K."
T2D8C 000:034.130 JLINK_GetEmuCaps()
T2D8C 000:034.134 - 0.014ms returns 0xB9FF7BBF
T2D8C 000:034.150 JLINK_TIF_GetAvailable(...)
T2D8C 000:038.776 - 4.645ms
T2D8C 000:038.902 JLINK_SetErrorOutHandler(...)
T2D8C 000:038.910 - 0.010ms
T2D8C 000:039.001 JLINK_ExecCommand("ProjectFile = "C:\Users\zhihao\Desktop\workcode\saiGeNew\JLinkSettings.ini"", ...). 
T2D8C 000:046.472   Ref file found at: D:\biancheng\Keil_v5\ARM\Segger\JLinkDevices.ref
T2D8C 000:046.683   XML referenced by ref file: D:\biancheng\jlink\JLinkDevices.xml
T2D8C 000:047.261   D:\biancheng\jlink\JLinkDevices.xml evaluated successfully.
T2D8C 000:102.203   Device "CW32F003" selected.
T2D8C 000:102.643 - 63.651ms returns 0x00
T2D8C 000:103.859 JLINK_ExecCommand("Device = CW32F003F4", ...). 
T2D8C 000:105.753   Device "CW32F003" selected.
T2D8C 000:106.163 - 2.292ms returns 0x00
T2D8C 000:106.180 JLINK_GetHardwareVersion()
T2D8C 000:106.184 - 0.006ms returns 97000
T2D8C 000:106.193 JLINK_GetDLLVersion()
T2D8C 000:106.197 - 0.005ms returns 69800
T2D8C 000:106.202 JLINK_GetOEMString(...)
T2D8C 000:106.215 JLINK_GetFirmwareString(...)
T2D8C 000:106.220 - 0.005ms
T2D8C 000:109.388 JLINK_GetDLLVersion()
T2D8C 000:109.399 - 0.013ms returns 69800
T2D8C 000:109.405 JLINK_GetCompileDateTime()
T2D8C 000:109.408 - 0.005ms
T2D8C 000:110.648 JLINK_GetFirmwareString(...)
T2D8C 000:110.662 - 0.015ms
T2D8C 000:112.965 JLINK_GetHardwareVersion()
T2D8C 000:112.975 - 0.012ms returns 97000
T2D8C 000:115.151 JLINK_GetSN()
T2D8C 000:115.173 - 0.024ms returns 602717820
T2D8C 000:117.913 JLINK_GetOEMString(...)
T2D8C 000:122.150 JLINK_TIF_Select(JLINKARM_TIF_SWD)
T2D8C 000:125.421 - 3.281ms returns 0x00
T2D8C 000:125.479 JLINK_HasError()
T2D8C 000:125.508 JLINK_SetSpeed(10000)
T2D8C 000:126.035 - 0.531ms
T2D8C 000:126.062 JLINK_GetId()
T2D8C 000:130.236   Found SW-DP with ID 0x0BC11477
T2D8C 000:138.010   DPIDR: 0x0BC11477
T2D8C 000:140.801   Scanning AP map to find all available APs
T2D8C 000:145.400   AP[1]: Stopped AP scan as end of AP map has been reached
T2D8C 000:148.006   AP[0]: AHB-AP (IDR: 0x04770031)
T2D8C 000:150.121   Iterating through AP map to find AHB-AP to use
T2D8C 000:154.509   AP[0]: Core found
T2D8C 000:157.075   AP[0]: AHB-AP ROM base: 0xE00FF000
T2D8C 000:160.672   CPUID register: 0x410CC601. Implementer code: 0x41 (ARM)
T2D8C 000:162.938   Found Cortex-M0 r0p1, Little endian.
T2D8C 000:265.427   -- Max. mem block: 0x0000D358
T2D8C 000:270.363   CPU_ReadMem(4 bytes @ 0xE000EDF0)
T2D8C 000:270.966   CPU_WriteMem(4 bytes @ 0xE000EDF0)
T2D8C 000:271.670   CPU_ReadMem(4 bytes @ 0xE0002000)
T2D8C 000:275.512   FPUnit: 4 code (BP) slots and 0 literal slots
T2D8C 000:275.528   CPU_ReadMem(4 bytes @ 0xE000EDFC)
T2D8C 000:276.384   CPU_WriteMem(4 bytes @ 0xE000EDFC)
T2D8C 000:277.301   CPU_ReadMem(4 bytes @ 0xE0001000)
T2D8C 000:278.015   CPU_WriteMem(4 bytes @ 0xE0001000)
T2D8C 000:281.668   CoreSight components:
T2D8C 000:283.942   ROMTbl[0] @ E00FF000
T2D8C 000:283.959   CPU_ReadMem(64 bytes @ 0xE00FF000)
T2D8C 000:285.118   CPU_ReadMem(32 bytes @ 0xE000EFE0)
T2D8C 000:288.652   ROMTbl[0][0]: E000E000, CID: B105E00D, PID: 000BB008 SCS
T2D8C 000:288.670   CPU_ReadMem(32 bytes @ 0xE0001FE0)
T2D8C 000:292.169   ROMTbl[0][1]: E0001000, CID: B105E00D, PID: 000BB00A DWT
T2D8C 000:292.185   CPU_ReadMem(32 bytes @ 0xE0002FE0)
T2D8C 000:295.349   ROMTbl[0][2]: E0002000, CID: B105E00D, PID: 000BB00B FPB
T2D8C 000:296.211 - 170.160ms returns 0x0BC11477
T2D8C 000:296.269 JLINK_GetDLLVersion()
T2D8C 000:296.274 - 0.006ms returns 69800
T2D8C 000:296.283 JLINK_CORE_GetFound()
T2D8C 000:296.286 - 0.005ms returns 0x60000FF
T2D8C 000:296.304 JLINK_GetDebugInfo(0x100 = JLINKARM_ROM_TABLE_ADDR_INDEX)
T2D8C 000:296.309   Value=0xE00FF000
T2D8C 000:296.314 - 0.012ms returns 0
T2D8C 000:298.035 JLINK_GetDebugInfo(0x100 = JLINKARM_ROM_TABLE_ADDR_INDEX)
T2D8C 000:298.049   Value=0xE00FF000
T2D8C 000:298.054 - 0.020ms returns 0
T2D8C 000:298.059 JLINK_GetDebugInfo(0x101 = JLINKARM_DEBUG_INFO_ETM_ADDR_INDEX)
T2D8C 000:298.062   Value=0x00000000
T2D8C 000:298.067 - 0.009ms returns 0
T2D8C 000:298.072 JLINK_ReadMemEx(0xE0041FF0, 0x10 Bytes, Flags = 0x02000004)
T2D8C 000:298.098   CPU_ReadMem(16 bytes @ 0xE0041FF0)
T2D8C 000:310.664   Data:  00 00 00 00 00 00 00 00 00 00 00 00 00 00 00 00
T2D8C 000:310.679 - 12.609ms returns 16 (0x10)
T2D8C 000:310.784 JLINK_GetDebugInfo(0x102 = JLINKARM_DEBUG_INFO_MTB_ADDR_INDEX)
T2D8C 000:310.789   Value=0x00000000
T2D8C 000:310.794 - 0.012ms returns 0
T2D8C 000:310.799 JLINK_GetDebugInfo(0x103 = JLINKARM_DEBUG_INFO_TPIU_ADDR_INDEX)
T2D8C 000:310.802   Value=0x00000000
T2D8C 000:310.807 - 0.009ms returns 0
T2D8C 000:310.811 JLINK_ReadMemEx(0xE0040FF0, 0x10 Bytes, Flags = 0x02000004)
T2D8C 000:310.824   CPU_ReadMem(16 bytes @ 0xE0040FF0)
T2D8C 000:311.893   Data:  00 00 00 00 00 00 00 00 00 00 00 00 00 00 00 00
T2D8C 000:311.900 - 1.089ms returns 16 (0x10)
T2D8C 000:311.922 JLINK_GetDebugInfo(0x104 = JLINKARM_DEBUG_INFO_ITM_ADDR_INDEX)
T2D8C 000:311.925   Value=0xE0000000
T2D8C 000:311.930 - 0.009ms returns 0
T2D8C 000:311.934 JLINK_GetDebugInfo(0x105 = JLINKARM_DEBUG_INFO_DWT_ADDR_INDEX)
T2D8C 000:311.937   Value=0xE0001000
T2D8C 000:311.941 - 0.009ms returns 0
T2D8C 000:311.945 JLINK_GetDebugInfo(0x106 = JLINKARM_DEBUG_INFO_FPB_ADDR_INDEX)
T2D8C 000:311.949   Value=0xE0002000
T2D8C 000:311.953 - 0.009ms returns 0
T2D8C 000:311.957 JLINK_GetDebugInfo(0x107 = JLINKARM_DEBUG_INFO_NVIC_ADDR_INDEX)
T2D8C 000:311.960   Value=0xE000E000
T2D8C 000:311.965 - 0.008ms returns 0
T2D8C 000:311.969 JLINK_GetDebugInfo(0x10C = JLINKARM_DEBUG_INFO_DBG_ADDR_INDEX)
T2D8C 000:311.972   Value=0xE000EDF0
T2D8C 000:311.976 - 0.009ms returns 0
T2D8C 000:311.980 JLINK_GetDebugInfo(0x01 = Unknown)
T2D8C 000:311.983   Value=0x00000000
T2D8C 000:311.988 - 0.009ms returns 0
T2D8C 000:311.992 JLINK_ReadMemU32(0xE000ED00, 0x1 Items)
T2D8C 000:311.999   CPU_ReadMem(4 bytes @ 0xE000ED00)
T2D8C 000:312.755   Data:  01 C6 0C 41
T2D8C 000:312.775   Debug reg: CPUID
T2D8C 000:312.779 - 0.788ms returns 1 (0x1)
T2D8C 000:312.796 JLINK_GetDebugInfo(0x10F = JLINKARM_DEBUG_INFO_HAS_CORTEX_M_SECURITY_EXT_INDEX)
T2D8C 000:312.799   Value=0x00000000
T2D8C 000:312.803 - 0.009ms returns 0
T2D8C 000:312.808 JLINK_HasError()
T2D8C 000:312.812 JLINK_SetResetType(JLINKARM_CM3_RESET_TYPE_NORMAL)
T2D8C 000:312.816 - 0.005ms returns JLINKARM_CM3_RESET_TYPE_NORMAL
T2D8C 000:312.820 JLINK_Reset()
T2D8C 000:314.028   CPU is running
T2D8C 000:314.036   CPU_WriteMem(4 bytes @ 0xE000EDF0)
T2D8C 000:314.797   CPU is running
T2D8C 000:314.805   CPU_WriteMem(4 bytes @ 0xE000EDFC)
T2D8C 000:318.935   Reset: Halt core after reset via DEMCR.VC_CORERESET.
T2D8C 000:322.400   Reset: Reset device via AIRCR.SYSRESETREQ.
T2D8C 000:322.416   CPU is running
T2D8C 000:322.424   CPU_WriteMem(4 bytes @ 0xE000ED0C)
T2D8C 000:378.566   CPU_ReadMem(4 bytes @ 0xE000EDF0)
T2D8C 000:379.469   CPU_ReadMem(4 bytes @ 0xE000EDF0)
T2D8C 000:380.077   CPU is running
T2D8C 000:380.090   CPU_WriteMem(4 bytes @ 0xE000EDF0)
T2D8C 000:380.640   CPU is running
T2D8C 000:380.653   CPU_WriteMem(4 bytes @ 0xE000EDFC)
T2D8C 000:386.849   CPU_ReadMem(4 bytes @ 0xE000EDF0)
T2D8C 000:391.060   CPU_WriteMem(4 bytes @ 0xE0002000)
T2D8C 000:391.717   CPU_ReadMem(4 bytes @ 0xE000EDFC)
T2D8C 000:392.459   CPU_ReadMem(4 bytes @ 0xE0001000)
T2D8C 000:393.112   CPU_WriteMem(4 bytes @ 0xE0001000)
T2D8C 000:393.941 - 81.128ms
T2D8C 000:393.973 JLINK_Halt()
T2D8C 000:393.977 - 0.005ms returns 0x00
T2D8C 000:393.983 JLINK_ReadMemU32(0xE000EDF0, 0x1 Items)
T2D8C 000:393.992   CPU_ReadMem(4 bytes @ 0xE000EDF0)
T2D8C 000:394.511   Data:  03 00 03 00
T2D8C 000:394.518   Debug reg: DHCSR
T2D8C 000:394.523 - 0.541ms returns 1 (0x1)
T2D8C 000:394.545 JLINK_WriteU32_64(0xE000EDF0, 0xA05F0003)
T2D8C 000:394.549   Debug reg: DHCSR
T2D8C 000:394.767   CPU_WriteMem(4 bytes @ 0xE000EDF0)
T2D8C 000:409.326 - 14.815ms returns 0 (0x00000000)
T2D8C 000:409.403 JLINK_WriteU32_64(0xE000EDFC, 0x01000000)
T2D8C 000:409.408   Debug reg: DEMCR
T2D8C 000:409.421   CPU_WriteMem(4 bytes @ 0xE000EDFC)
T2D8C 000:410.392 - 0.999ms returns 0 (0x00000000)
T2D8C 000:419.933 JLINK_GetHWStatus(...)
T2D8C 000:420.449 - 0.525ms returns 0
T2D8C 000:426.239 JLINK_GetNumBPUnits(Type = 0xFFFFFF00)
T2D8C 000:426.253 - 0.016ms returns 0x04
T2D8C 000:426.258 JLINK_GetNumBPUnits(Type = 0xF0)
T2D8C 000:426.262 - 0.005ms returns 0x2000
T2D8C 000:426.266 JLINK_GetNumWPUnits()
T2D8C 000:426.269 - 0.004ms returns 1
T2D8C 000:431.409 JLINK_GetSpeed()
T2D8C 000:431.421 - 0.013ms returns 6000
T2D8C 000:435.034 JLINK_ReadMemU32(0xE000E004, 0x1 Items)
T2D8C 000:435.057   CPU_ReadMem(4 bytes @ 0xE000E004)
T2D8C 000:448.358   Data:  00 00 00 00
T2D8C 000:448.375 - 13.343ms returns 1 (0x1)
T2D8C 000:448.449 JLINK_Halt()
T2D8C 000:448.454 - 0.006ms returns 0x00
T2D8C 000:448.459 JLINK_IsHalted()
T2D8C 000:448.463 - 0.005ms returns TRUE
T2D8C 000:451.994 JLINK_WriteMem(0x20000000, 0x288 Bytes, ...)
T2D8C 000:452.005   Data:  00 BE 0A E0 0D 78 2D 06 68 40 08 24 40 00 00 D3 ...
T2D8C 000:452.212   CPU_WriteMem(648 bytes @ 0x20000000)
T2D8C 000:455.747 - 3.760ms returns 0x288
T2D8C 000:455.829 JLINK_HasError()
T2D8C 000:455.836 JLINK_WriteReg(R0, 0x00000000)
T2D8C 000:455.862 - 0.027ms returns 0
T2D8C 000:455.867 JLINK_WriteReg(R1, 0x00B71B00)
T2D8C 000:455.871 - 0.005ms returns 0
T2D8C 000:455.876 JLINK_WriteReg(R2, 0x00000001)
T2D8C 000:455.879 - 0.005ms returns 0
T2D8C 000:455.884 JLINK_WriteReg(R3, 0x00000000)
T2D8C 000:455.888 - 0.005ms returns 0
T2D8C 000:455.892 JLINK_WriteReg(R4, 0x00000000)
T2D8C 000:455.896 - 0.005ms returns 0
T2D8C 000:455.901 JLINK_WriteReg(R5, 0x00000000)
T2D8C 000:455.904 - 0.005ms returns 0
T2D8C 000:455.909 JLINK_WriteReg(R6, 0x00000000)
T2D8C 000:455.912 - 0.005ms returns 0
T2D8C 000:455.917 JLINK_WriteReg(R7, 0x00000000)
T2D8C 000:455.921 - 0.005ms returns 0
T2D8C 000:455.925 JLINK_WriteReg(R8, 0x00000000)
T2D8C 000:455.942 - 0.021ms returns 0
T2D8C 000:455.949 JLINK_WriteReg(R9, 0x20000284)
T2D8C 000:455.953 - 0.005ms returns 0
T2D8C 000:455.957 JLINK_WriteReg(R10, 0x00000000)
T2D8C 000:455.961 - 0.005ms returns 0
T2D8C 000:455.965 JLINK_WriteReg(R11, 0x00000000)
T2D8C 000:455.969 - 0.005ms returns 0
T2D8C 000:455.973 JLINK_WriteReg(R12, 0x00000000)
T2D8C 000:455.977 - 0.005ms returns 0
T2D8C 000:455.981 JLINK_WriteReg(R13 (SP), 0x20000800)
T2D8C 000:455.985 - 0.005ms returns 0
T2D8C 000:455.989 JLINK_WriteReg(R14, 0x20000001)
T2D8C 000:455.993 - 0.005ms returns 0
T2D8C 000:455.997 JLINK_WriteReg(R15 (PC), 0x20000040)
T2D8C 000:456.001 - 0.005ms returns 0
T2D8C 000:456.005 JLINK_WriteReg(XPSR, 0x01000000)
T2D8C 000:456.008 - 0.005ms returns 0
T2D8C 000:456.012 JLINK_WriteReg(MSP, 0x20000800)
T2D8C 000:456.016 - 0.005ms returns 0
T2D8C 000:456.020 JLINK_WriteReg(PSP, 0x20000800)
T2D8C 000:456.024 - 0.005ms returns 0
T2D8C 000:456.028 JLINK_WriteReg(CFBP, 0x00000000)
T2D8C 000:456.031 - 0.005ms returns 0
T2D8C 000:456.036 JLINK_SetBPEx(Addr = 0x20000000, Type = 0xFFFFFFF2)
T2D8C 000:456.047   CPU_ReadMem(2 bytes @ 0x20000000)
T2D8C 000:456.922 - 0.896ms returns 0x00000001
T2D8C 000:456.973 JLINK_Go()
T2D8C 000:456.982   CPU_WriteMem(2 bytes @ 0x20000000)
T2D8C 000:457.611   CPU_ReadMem(4 bytes @ 0xE0001000)
T2D8C 000:458.354   CPU_WriteMem(4 bytes @ 0xE0001000)
T2D8C 000:458.368   CPU_WriteMem(4 bytes @ 0xE0002008)
T2D8C 000:458.373   CPU_WriteMem(4 bytes @ 0xE000200C)
T2D8C 000:458.379   CPU_WriteMem(4 bytes @ 0xE0002010)
T2D8C 000:458.384   CPU_WriteMem(4 bytes @ 0xE0002014)
T2D8C 000:459.882   CPU_WriteMem(4 bytes @ 0xE0001004)
T2D8C 000:463.506 - 6.543ms
T2D8C 000:463.554 JLINK_IsHalted()
T2D8C 000:466.295   CPU_ReadMem(2 bytes @ 0x20000000)
T2D8C 000:466.828 - 3.281ms returns TRUE
T2D8C 000:466.870 JLINK_ReadReg(R15 (PC))
T2D8C 000:466.876 - 0.008ms returns 0x20000000
T2D8C 000:466.881 JLINK_ClrBPEx(BPHandle = 0x00000001)
T2D8C 000:466.885 - 0.005ms returns 0x00
T2D8C 000:466.889 JLINK_ReadReg(R0)
T2D8C 000:466.893 - 0.005ms returns 0x00000000
T2D8C 000:467.125 JLINK_HasError()
T2D8C 000:467.133 JLINK_WriteReg(R0, 0x00000000)
T2D8C 000:467.139 - 0.007ms returns 0
T2D8C 000:467.143 JLINK_WriteReg(R1, 0x00B71B00)
T2D8C 000:467.148 - 0.006ms returns 0
T2D8C 000:467.153 JLINK_WriteReg(R2, 0x00000001)
T2D8C 000:467.156 - 0.005ms returns 0
T2D8C 000:467.160 JLINK_WriteReg(R3, 0x00000000)
T2D8C 000:467.164 - 0.005ms returns 0
T2D8C 000:467.168 JLINK_WriteReg(R4, 0x00000000)
T2D8C 000:467.172 - 0.005ms returns 0
T2D8C 000:467.176 JLINK_WriteReg(R5, 0x00000000)
T2D8C 000:467.180 - 0.005ms returns 0
T2D8C 000:467.184 JLINK_WriteReg(R6, 0x00000000)
T2D8C 000:467.189 - 0.005ms returns 0
T2D8C 000:467.193 JLINK_WriteReg(R7, 0x00000000)
T2D8C 000:467.197 - 0.005ms returns 0
T2D8C 000:467.201 JLINK_WriteReg(R8, 0x00000000)
T2D8C 000:467.205 - 0.005ms returns 0
T2D8C 000:467.209 JLINK_WriteReg(R9, 0x20000284)
T2D8C 000:467.213 - 0.005ms returns 0
T2D8C 000:467.218 JLINK_WriteReg(R10, 0x00000000)
T2D8C 000:467.221 - 0.005ms returns 0
T2D8C 000:467.226 JLINK_WriteReg(R11, 0x00000000)
T2D8C 000:467.230 - 0.005ms returns 0
T2D8C 000:467.234 JLINK_WriteReg(R12, 0x00000000)
T2D8C 000:467.238 - 0.005ms returns 0
T2D8C 000:467.242 JLINK_WriteReg(R13 (SP), 0x20000800)
T2D8C 000:467.247 - 0.006ms returns 0
T2D8C 000:467.251 JLINK_WriteReg(R14, 0x20000001)
T2D8C 000:467.255 - 0.005ms returns 0
T2D8C 000:467.259 JLINK_WriteReg(R15 (PC), 0x20000114)
T2D8C 000:467.263 - 0.005ms returns 0
T2D8C 000:467.268 JLINK_WriteReg(XPSR, 0x01000000)
T2D8C 000:467.272 - 0.005ms returns 0
T2D8C 000:467.276 JLINK_WriteReg(MSP, 0x20000800)
T2D8C 000:467.280 - 0.005ms returns 0
T2D8C 000:467.284 JLINK_WriteReg(PSP, 0x20000800)
T2D8C 000:467.288 - 0.005ms returns 0
T2D8C 000:467.293 JLINK_WriteReg(CFBP, 0x00000000)
T2D8C 000:467.296 - 0.005ms returns 0
T2D8C 000:467.301 JLINK_SetBPEx(Addr = 0x20000000, Type = 0xFFFFFFF2)
T2D8C 000:467.306 - 0.006ms returns 0x00000002
T2D8C 000:467.310 JLINK_Go()
T2D8C 000:467.319   CPU_ReadMem(4 bytes @ 0xE0001000)
T2D8C 000:467.904   CPU_WriteMem(4 bytes @ 0xE0001000)
T2D8C 000:471.008 - 3.706ms
T2D8C 000:471.054 JLINK_IsHalted()
T2D8C 000:471.555 - 0.504ms returns FALSE
T2D8C 000:471.579 JLINK_HasError()
T2D8C 000:485.949 JLINK_IsHalted()
T2D8C 000:486.538 - 0.593ms returns FALSE
T2D8C 000:486.560 JLINK_HasError()
T2D8C 000:488.160 JLINK_IsHalted()
T2D8C 000:488.748 - 0.610ms returns FALSE
T2D8C 000:488.785 JLINK_HasError()
T2D8C 000:491.391 JLINK_IsHalted()
T2D8C 000:505.015 - 13.639ms returns FALSE
T2D8C 000:505.052 JLINK_HasError()
T2D8C 000:507.156 JLINK_IsHalted()
T2D8C 000:508.144 - 0.998ms returns FALSE
T2D8C 000:508.170 JLINK_HasError()
T2D8C 000:509.725 JLINK_IsHalted()
T2D8C 000:510.875 - 1.163ms returns FALSE
T2D8C 000:510.903 JLINK_HasError()
T2D8C 000:513.909 JLINK_IsHalted()
T2D8C 000:514.676 - 0.776ms returns FALSE
T2D8C 000:514.713 JLINK_HasError()
T2D8C 000:515.897 JLINK_IsHalted()
T2D8C 000:516.819 - 0.936ms returns FALSE
T2D8C 000:516.848 JLINK_HasError()
T2D8C 000:518.747 JLINK_IsHalted()
T2D8C 000:519.641 - 0.911ms returns FALSE
T2D8C 000:519.672 JLINK_HasError()
T2D8C 000:523.390 JLINK_IsHalted()
T2D8C 000:524.038 - 0.652ms returns FALSE
T2D8C 000:524.059 JLINK_HasError()
T2D8C 000:525.560 JLINK_IsHalted()
T2D8C 000:526.285 - 0.743ms returns FALSE
T2D8C 000:526.318 JLINK_HasError()
T2D8C 000:527.628 JLINK_IsHalted()
T2D8C 000:528.479 - 0.853ms returns FALSE
T2D8C 000:528.500 JLINK_HasError()
T2D8C 000:529.711 JLINK_IsHalted()
T2D8C 000:530.568 - 0.869ms returns FALSE
T2D8C 000:530.597 JLINK_HasError()
T2D8C 000:531.855 JLINK_IsHalted()
T2D8C 000:532.744 - 0.903ms returns FALSE
T2D8C 000:532.771 JLINK_HasError()
T2D8C 000:533.909 JLINK_IsHalted()
T2D8C 000:534.674 - 0.784ms returns FALSE
T2D8C 000:534.706 JLINK_HasError()
T2D8C 000:535.990 JLINK_IsHalted()
T2D8C 000:536.701 - 0.729ms returns FALSE
T2D8C 000:536.736 JLINK_HasError()
T2D8C 000:538.105 JLINK_IsHalted()
T2D8C 000:538.769 - 0.668ms returns FALSE
T2D8C 000:538.818 JLINK_HasError()
T2D8C 000:540.343 JLINK_IsHalted()
T2D8C 000:552.925 - 12.591ms returns FALSE
T2D8C 000:552.967 JLINK_HasError()
T2D8C 000:555.195 JLINK_IsHalted()
T2D8C 000:555.803 - 0.610ms returns FALSE
T2D8C 000:555.823 JLINK_HasError()
T2D8C 000:557.291 JLINK_IsHalted()
T2D8C 000:557.800 - 0.517ms returns FALSE
T2D8C 000:557.842 JLINK_HasError()
T2D8C 000:559.421 JLINK_IsHalted()
T2D8C 000:560.021 - 0.605ms returns FALSE
T2D8C 000:560.052 JLINK_HasError()
T2D8C 000:561.620 JLINK_IsHalted()
T2D8C 000:562.209 - 0.592ms returns FALSE
T2D8C 000:562.227 JLINK_HasError()
T2D8C 000:563.931 JLINK_IsHalted()
T2D8C 000:564.625 - 0.698ms returns FALSE
T2D8C 000:564.649 JLINK_HasError()
T2D8C 000:566.424 JLINK_IsHalted()
T2D8C 000:567.077 - 0.656ms returns FALSE
T2D8C 000:567.103 JLINK_HasError()
T2D8C 000:568.634 JLINK_IsHalted()
T2D8C 000:569.329 - 0.697ms returns FALSE
T2D8C 000:569.345 JLINK_HasError()
T2D8C 000:570.832 JLINK_IsHalted()
T2D8C 000:571.495 - 0.681ms returns FALSE
T2D8C 000:571.528 JLINK_HasError()
T2D8C 000:573.254 JLINK_IsHalted()
T2D8C 000:573.793 - 0.540ms returns FALSE
T2D8C 000:573.810 JLINK_HasError()
T2D8C 000:575.147 JLINK_IsHalted()
T2D8C 000:575.690 - 0.546ms returns FALSE
T2D8C 000:575.706 JLINK_HasError()
T2D8C 000:577.361 JLINK_IsHalted()
T2D8C 000:577.962 - 0.603ms returns FALSE
T2D8C 000:577.978 JLINK_HasError()
T2D8C 000:579.569 JLINK_IsHalted()
T2D8C 000:580.288 - 0.723ms returns FALSE
T2D8C 000:580.310 JLINK_HasError()
T2D8C 000:582.681 JLINK_IsHalted()
T2D8C 000:583.292 - 0.614ms returns FALSE
T2D8C 000:583.310 JLINK_HasError()
T2D8C 000:584.908 JLINK_IsHalted()
T2D8C 000:585.683 - 0.779ms returns FALSE
T2D8C 000:585.733 JLINK_HasError()
T2D8C 000:587.302 JLINK_IsHalted()
T2D8C 000:599.665 - 12.366ms returns FALSE
T2D8C 000:599.683 JLINK_HasError()
T2D8C 000:601.078 JLINK_IsHalted()
T2D8C 000:601.834 - 0.792ms returns FALSE
T2D8C 000:601.908 JLINK_HasError()
T2D8C 000:603.198 JLINK_IsHalted()
T2D8C 000:603.968 - 0.774ms returns FALSE
T2D8C 000:603.988 JLINK_HasError()
T2D8C 000:605.270 JLINK_IsHalted()
T2D8C 000:606.101 - 0.833ms returns FALSE
T2D8C 000:606.117 JLINK_HasError()
T2D8C 000:607.528 JLINK_IsHalted()
T2D8C 000:608.592 - 1.074ms returns FALSE
T2D8C 000:608.635 JLINK_HasError()
T2D8C 000:609.841 JLINK_IsHalted()
T2D8C 000:610.667 - 0.828ms returns FALSE
T2D8C 000:610.683 JLINK_HasError()
T2D8C 000:612.399 JLINK_IsHalted()
T2D8C 000:613.544 - 1.147ms returns FALSE
T2D8C 000:613.560 JLINK_HasError()
T2D8C 000:615.745 JLINK_IsHalted()
T2D8C 000:616.718 - 0.976ms returns FALSE
T2D8C 000:616.738 JLINK_HasError()
T2D8C 000:617.932 JLINK_IsHalted()
T2D8C 000:618.826 - 0.896ms returns FALSE
T2D8C 000:618.873 JLINK_HasError()
T2D8C 000:619.955 JLINK_IsHalted()
T2D8C 000:620.774 - 0.822ms returns FALSE
T2D8C 000:620.794 JLINK_HasError()
T2D8C 000:622.293 JLINK_IsHalted()
T2D8C 000:623.010 - 0.738ms returns FALSE
T2D8C 000:623.045 JLINK_HasError()
T2D8C 000:625.026 JLINK_IsHalted()
T2D8C 000:625.826 - 0.820ms returns FALSE
T2D8C 000:625.860 JLINK_HasError()
T2D8C 000:627.206 JLINK_IsHalted()
T2D8C 000:627.868 - 0.663ms returns FALSE
T2D8C 000:627.917 JLINK_HasError()
T2D8C 000:629.285 JLINK_IsHalted()
T2D8C 000:630.036 - 0.760ms returns FALSE
T2D8C 000:630.059 JLINK_HasError()
T2D8C 000:631.530 JLINK_IsHalted()
T2D8C 000:632.355 - 0.827ms returns FALSE
T2D8C 000:632.374 JLINK_HasError()
T2D8C 000:633.650 JLINK_IsHalted()
T2D8C 000:646.310 - 12.668ms returns FALSE
T2D8C 000:646.354 JLINK_HasError()
T2D8C 000:648.275 JLINK_IsHalted()
T2D8C 000:649.088 - 0.821ms returns FALSE
T2D8C 000:649.133 JLINK_HasError()
T2D8C 000:650.302 JLINK_IsHalted()
T2D8C 000:651.115 - 0.821ms returns FALSE
T2D8C 000:651.159 JLINK_HasError()
T2D8C 000:652.322 JLINK_IsHalted()
T2D8C 000:653.181 - 0.868ms returns FALSE
T2D8C 000:653.246 JLINK_HasError()
T2D8C 000:655.310 JLINK_IsHalted()
T2D8C 000:656.046 - 0.744ms returns FALSE
T2D8C 000:656.090 JLINK_HasError()
T2D8C 000:657.798 JLINK_IsHalted()
T2D8C 000:658.582 - 0.826ms returns FALSE
T2D8C 000:658.660 JLINK_HasError()
T2D8C 000:659.772 JLINK_IsHalted()
T2D8C 000:662.627   CPU_ReadMem(2 bytes @ 0x20000000)
T2D8C 000:663.317 - 3.551ms returns TRUE
T2D8C 000:663.348 JLINK_ReadReg(R15 (PC))
T2D8C 000:663.355 - 0.008ms returns 0x20000000
T2D8C 000:663.360 JLINK_ClrBPEx(BPHandle = 0x00000002)
T2D8C 000:663.363 - 0.005ms returns 0x00
T2D8C 000:663.368 JLINK_ReadReg(R0)
T2D8C 000:663.371 - 0.005ms returns 0x00000000
T2D8C 000:717.049 JLINK_HasError()
T2D8C 000:717.068 JLINK_WriteReg(R0, 0x00000001)
T2D8C 000:717.076 - 0.009ms returns 0
T2D8C 000:717.080 JLINK_WriteReg(R1, 0x00B71B00)
T2D8C 000:717.084 - 0.005ms returns 0
T2D8C 000:717.088 JLINK_WriteReg(R2, 0x00000001)
T2D8C 000:717.091 - 0.004ms returns 0
T2D8C 000:717.095 JLINK_WriteReg(R3, 0x00000000)
T2D8C 000:717.098 - 0.004ms returns 0
T2D8C 000:717.102 JLINK_WriteReg(R4, 0x00000000)
T2D8C 000:717.105 - 0.004ms returns 0
T2D8C 000:717.109 JLINK_WriteReg(R5, 0x00000000)
T2D8C 000:717.113 - 0.004ms returns 0
T2D8C 000:717.116 JLINK_WriteReg(R6, 0x00000000)
T2D8C 000:717.120 - 0.004ms returns 0
T2D8C 000:717.124 JLINK_WriteReg(R7, 0x00000000)
T2D8C 000:717.127 - 0.004ms returns 0
T2D8C 000:717.131 JLINK_WriteReg(R8, 0x00000000)
T2D8C 000:717.134 - 0.004ms returns 0
T2D8C 000:717.138 JLINK_WriteReg(R9, 0x20000284)
T2D8C 000:717.141 - 0.004ms returns 0
T2D8C 000:717.145 JLINK_WriteReg(R10, 0x00000000)
T2D8C 000:717.148 - 0.004ms returns 0
T2D8C 000:717.152 JLINK_WriteReg(R11, 0x00000000)
T2D8C 000:717.155 - 0.005ms returns 0
T2D8C 000:717.160 JLINK_WriteReg(R12, 0x00000000)
T2D8C 000:717.163 - 0.004ms returns 0
T2D8C 000:717.167 JLINK_WriteReg(R13 (SP), 0x20000800)
T2D8C 000:717.171 - 0.005ms returns 0
T2D8C 000:717.175 JLINK_WriteReg(R14, 0x20000001)
T2D8C 000:717.178 - 0.004ms returns 0
T2D8C 000:717.182 JLINK_WriteReg(R15 (PC), 0x200000EE)
T2D8C 000:717.186 - 0.005ms returns 0
T2D8C 000:717.190 JLINK_WriteReg(XPSR, 0x01000000)
T2D8C 000:717.193 - 0.004ms returns 0
T2D8C 000:717.197 JLINK_WriteReg(MSP, 0x20000800)
T2D8C 000:717.200 - 0.004ms returns 0
T2D8C 000:717.204 JLINK_WriteReg(PSP, 0x20000800)
T2D8C 000:717.207 - 0.004ms returns 0
T2D8C 000:717.211 JLINK_WriteReg(CFBP, 0x00000000)
T2D8C 000:717.214 - 0.004ms returns 0
T2D8C 000:717.218 JLINK_SetBPEx(Addr = 0x20000000, Type = 0xFFFFFFF2)
T2D8C 000:717.223 - 0.006ms returns 0x00000003
T2D8C 000:717.227 JLINK_Go()
T2D8C 000:717.237   CPU_ReadMem(4 bytes @ 0xE0001000)
T2D8C 000:718.060   CPU_WriteMem(4 bytes @ 0xE0001000)
T2D8C 000:721.094 - 3.872ms
T2D8C 000:721.121 JLINK_IsHalted()
T2D8C 000:723.796   CPU_ReadMem(2 bytes @ 0x20000000)
T2D8C 000:724.341 - 3.224ms returns TRUE
T2D8C 000:724.363 JLINK_ReadReg(R15 (PC))
T2D8C 000:724.369 - 0.007ms returns 0x20000000
T2D8C 000:724.373 JLINK_ClrBPEx(BPHandle = 0x00000003)
T2D8C 000:724.377 - 0.005ms returns 0x00
T2D8C 000:724.382 JLINK_ReadReg(R0)
T2D8C 000:724.385 - 0.005ms returns 0x00000000
T2D8C 000:728.150 JLINK_WriteMem(0x20000000, 0x288 Bytes, ...)
T2D8C 000:728.158   Data:  00 BE 0A E0 0D 78 2D 06 68 40 08 24 40 00 00 D3 ...
T2D8C 000:728.169   CPU_WriteMem(648 bytes @ 0x20000000)
T2D8C 000:740.204 - 12.066ms returns 0x288
T2D8C 000:740.310 JLINK_HasError()
T2D8C 000:740.317 JLINK_WriteReg(R0, 0x00000000)
T2D8C 000:740.323 - 0.007ms returns 0
T2D8C 000:740.328 JLINK_WriteReg(R1, 0x00B71B00)
T2D8C 000:740.331 - 0.005ms returns 0
T2D8C 000:740.335 JLINK_WriteReg(R2, 0x00000002)
T2D8C 000:740.339 - 0.004ms returns 0
T2D8C 000:740.343 JLINK_WriteReg(R3, 0x00000000)
T2D8C 000:740.346 - 0.004ms returns 0
T2D8C 000:740.350 JLINK_WriteReg(R4, 0x00000000)
T2D8C 000:740.353 - 0.004ms returns 0
T2D8C 000:740.357 JLINK_WriteReg(R5, 0x00000000)
T2D8C 000:740.360 - 0.005ms returns 0
T2D8C 000:740.365 JLINK_WriteReg(R6, 0x00000000)
T2D8C 000:740.368 - 0.004ms returns 0
T2D8C 000:740.372 JLINK_WriteReg(R7, 0x00000000)
T2D8C 000:740.375 - 0.004ms returns 0
T2D8C 000:740.379 JLINK_WriteReg(R8, 0x00000000)
T2D8C 000:740.382 - 0.004ms returns 0
T2D8C 000:740.386 JLINK_WriteReg(R9, 0x20000284)
T2D8C 000:740.389 - 0.004ms returns 0
T2D8C 000:740.393 JLINK_WriteReg(R10, 0x00000000)
T2D8C 000:740.396 - 0.004ms returns 0
T2D8C 000:740.400 JLINK_WriteReg(R11, 0x00000000)
T2D8C 000:740.403 - 0.004ms returns 0
T2D8C 000:740.407 JLINK_WriteReg(R12, 0x00000000)
T2D8C 000:740.411 - 0.004ms returns 0
T2D8C 000:740.414 JLINK_WriteReg(R13 (SP), 0x20000800)
T2D8C 000:740.418 - 0.005ms returns 0
T2D8C 000:740.422 JLINK_WriteReg(R14, 0x20000001)
T2D8C 000:740.425 - 0.004ms returns 0
T2D8C 000:740.429 JLINK_WriteReg(R15 (PC), 0x20000040)
T2D8C 000:740.433 - 0.004ms returns 0
T2D8C 000:740.436 JLINK_WriteReg(XPSR, 0x01000000)
T2D8C 000:740.440 - 0.004ms returns 0
T2D8C 000:740.444 JLINK_WriteReg(MSP, 0x20000800)
T2D8C 000:740.447 - 0.004ms returns 0
T2D8C 000:740.451 JLINK_WriteReg(PSP, 0x20000800)
T2D8C 000:740.454 - 0.004ms returns 0
T2D8C 000:740.458 JLINK_WriteReg(CFBP, 0x00000000)
T2D8C 000:740.461 - 0.004ms returns 0
T2D8C 000:740.465 JLINK_SetBPEx(Addr = 0x20000000, Type = 0xFFFFFFF2)
T2D8C 000:740.472   CPU_ReadMem(2 bytes @ 0x20000000)
T2D8C 000:741.092 - 0.635ms returns 0x00000004
T2D8C 000:741.136 JLINK_Go()
T2D8C 000:741.143   CPU_WriteMem(2 bytes @ 0x20000000)
T2D8C 000:741.714   CPU_ReadMem(4 bytes @ 0xE0001000)
T2D8C 000:742.221   CPU_WriteMem(4 bytes @ 0xE0001000)
T2D8C 000:745.276 - 4.145ms
T2D8C 000:745.297 JLINK_IsHalted()
T2D8C 000:748.001   CPU_ReadMem(2 bytes @ 0x20000000)
T2D8C 000:748.563 - 3.270ms returns TRUE
T2D8C 000:748.585 JLINK_ReadReg(R15 (PC))
T2D8C 000:748.590 - 0.006ms returns 0x20000000
T2D8C 000:748.594 JLINK_ClrBPEx(BPHandle = 0x00000004)
T2D8C 000:748.598 - 0.005ms returns 0x00
T2D8C 000:748.602 JLINK_ReadReg(R0)
T2D8C 000:748.605 - 0.005ms returns 0x00000000
T2D8C 000:748.830 JLINK_WriteMem(0x20000288, 0x178 Bytes, ...)
T2D8C 000:748.837   Data:  40 09 00 20 9D 01 00 00 EF 10 00 00 E7 10 00 00 ...
T2D8C 000:748.848   CPU_WriteMem(376 bytes @ 0x20000288)
T2D8C 000:750.929 - 2.102ms returns 0x178
T2D8C 000:750.948 JLINK_WriteMem(0x20000400, 0x88 Bytes, ...)
T2D8C 000:750.952   Data:  08 2E 02 D3 03 CC 03 C5 08 3E 04 2E 07 D3 01 CC ...
T2D8C 000:750.959   CPU_WriteMem(136 bytes @ 0x20000400)
T2D8C 000:752.170 - 1.224ms returns 0x88
T2D8C 000:752.186 JLINK_HasError()
T2D8C 000:752.191 JLINK_WriteReg(R0, 0x00000000)
T2D8C 000:752.201 - 0.028ms returns 0
T2D8C 000:752.242 JLINK_WriteReg(R1, 0x00000200)
T2D8C 000:752.246 - 0.005ms returns 0
T2D8C 000:752.250 JLINK_WriteReg(R2, 0x20000288)
T2D8C 000:752.253 - 0.005ms returns 0
T2D8C 000:752.257 JLINK_WriteReg(R3, 0x00000000)
T2D8C 000:752.261 - 0.005ms returns 0
T2D8C 000:752.265 JLINK_WriteReg(R4, 0x00000000)
T2D8C 000:752.268 - 0.005ms returns 0
T2D8C 000:752.273 JLINK_WriteReg(R5, 0x00000000)
T2D8C 000:752.276 - 0.005ms returns 0
T2D8C 000:752.281 JLINK_WriteReg(R6, 0x00000000)
T2D8C 000:752.284 - 0.004ms returns 0
T2D8C 000:752.288 JLINK_WriteReg(R7, 0x00000000)
T2D8C 000:752.292 - 0.004ms returns 0
T2D8C 000:752.295 JLINK_WriteReg(R8, 0x00000000)
T2D8C 000:752.299 - 0.005ms returns 0
T2D8C 000:752.303 JLINK_WriteReg(R9, 0x20000284)
T2D8C 000:752.306 - 0.008ms returns 0
T2D8C 000:752.315 JLINK_WriteReg(R10, 0x00000000)
T2D8C 000:752.319 - 0.005ms returns 0
T2D8C 000:752.323 JLINK_WriteReg(R11, 0x00000000)
T2D8C 000:752.327 - 0.005ms returns 0
T2D8C 000:752.331 JLINK_WriteReg(R12, 0x00000000)
T2D8C 000:752.334 - 0.005ms returns 0
T2D8C 000:752.338 JLINK_WriteReg(R13 (SP), 0x20000800)
T2D8C 000:752.342 - 0.005ms returns 0
T2D8C 000:752.346 JLINK_WriteReg(R14, 0x20000001)
T2D8C 000:752.350 - 0.005ms returns 0
T2D8C 000:752.354 JLINK_WriteReg(R15 (PC), 0x20000208)
T2D8C 000:752.358 - 0.005ms returns 0
T2D8C 000:752.362 JLINK_WriteReg(XPSR, 0x01000000)
T2D8C 000:752.365 - 0.005ms returns 0
T2D8C 000:752.369 JLINK_WriteReg(MSP, 0x20000800)
T2D8C 000:752.373 - 0.005ms returns 0
T2D8C 000:752.377 JLINK_WriteReg(PSP, 0x20000800)
T2D8C 000:752.381 - 0.005ms returns 0
T2D8C 000:752.385 JLINK_WriteReg(CFBP, 0x00000000)
T2D8C 000:752.388 - 0.005ms returns 0
T2D8C 000:752.392 JLINK_SetBPEx(Addr = 0x20000000, Type = 0xFFFFFFF2)
T2D8C 000:752.396 - 0.005ms returns 0x00000005
T2D8C 000:752.401 JLINK_Go()
T2D8C 000:752.407   CPU_ReadMem(4 bytes @ 0xE0001000)
T2D8C 000:753.018   CPU_WriteMem(4 bytes @ 0xE0001000)
T2D8C 000:756.368 - 3.976ms
T2D8C 000:756.407 JLINK_IsHalted()
T2D8C 000:758.494 - 2.094ms returns FALSE
T2D8C 000:758.532 JLINK_HasError()
T2D8C 000:764.453 JLINK_IsHalted()
T2D8C 000:767.024   CPU_ReadMem(2 bytes @ 0x20000000)
T2D8C 000:767.477 - 3.027ms returns TRUE
T2D8C 000:767.500 JLINK_ReadReg(R15 (PC))
T2D8C 000:767.506 - 0.007ms returns 0x20000000
T2D8C 000:767.511 JLINK_ClrBPEx(BPHandle = 0x00000005)
T2D8C 000:767.515 - 0.005ms returns 0x00
T2D8C 000:767.519 JLINK_ReadReg(R0)
T2D8C 000:767.523 - 0.005ms returns 0x00000000
T2D8C 000:767.816 JLINK_WriteMem(0x20000288, 0x178 Bytes, ...)
T2D8C 000:767.823   Data:  0E 4C E6 01 00 E0 08 C2 08 C9 1D 1B 9D 43 35 42 ...
T2D8C 000:767.834   CPU_WriteMem(376 bytes @ 0x20000288)
T2D8C 000:770.015 - 2.207ms returns 0x178
T2D8C 000:770.039 JLINK_WriteMem(0x20000400, 0x88 Bytes, ...)
T2D8C 000:770.043   Data:  12 BA 03 0A 8B 42 0C D3 89 01 92 11 8B 42 08 D3 ...
T2D8C 000:770.050   CPU_WriteMem(136 bytes @ 0x20000400)
T2D8C 000:771.340 - 1.309ms returns 0x88
T2D8C 000:771.373 JLINK_HasError()
T2D8C 000:771.378 JLINK_WriteReg(R0, 0x00000200)
T2D8C 000:771.385 - 0.008ms returns 0
T2D8C 000:771.389 JLINK_WriteReg(R1, 0x00000200)
T2D8C 000:771.393 - 0.005ms returns 0
T2D8C 000:771.398 JLINK_WriteReg(R2, 0x20000288)
T2D8C 000:771.401 - 0.005ms returns 0
T2D8C 000:771.406 JLINK_WriteReg(R3, 0x00000000)
T2D8C 000:771.409 - 0.005ms returns 0
T2D8C 000:771.413 JLINK_WriteReg(R4, 0x00000000)
T2D8C 000:771.417 - 0.005ms returns 0
T2D8C 000:771.421 JLINK_WriteReg(R5, 0x00000000)
T2D8C 000:771.424 - 0.005ms returns 0
T2D8C 000:771.428 JLINK_WriteReg(R6, 0x00000000)
T2D8C 000:771.432 - 0.005ms returns 0
T2D8C 000:771.436 JLINK_WriteReg(R7, 0x00000000)
T2D8C 000:771.440 - 0.005ms returns 0
T2D8C 000:771.444 JLINK_WriteReg(R8, 0x00000000)
T2D8C 000:771.448 - 0.005ms returns 0
T2D8C 000:771.452 JLINK_WriteReg(R9, 0x20000284)
T2D8C 000:771.455 - 0.005ms returns 0
T2D8C 000:771.459 JLINK_WriteReg(R10, 0x00000000)
T2D8C 000:771.463 - 0.005ms returns 0
T2D8C 000:771.468 JLINK_WriteReg(R11, 0x00000000)
T2D8C 000:771.471 - 0.005ms returns 0
T2D8C 000:771.476 JLINK_WriteReg(R12, 0x00000000)
T2D8C 000:771.479 - 0.005ms returns 0
T2D8C 000:771.483 JLINK_WriteReg(R13 (SP), 0x20000800)
T2D8C 000:771.487 - 0.005ms returns 0
T2D8C 000:771.491 JLINK_WriteReg(R14, 0x20000001)
T2D8C 000:771.495 - 0.005ms returns 0
T2D8C 000:771.499 JLINK_WriteReg(R15 (PC), 0x20000208)
T2D8C 000:771.503 - 0.005ms returns 0
T2D8C 000:771.507 JLINK_WriteReg(XPSR, 0x01000000)
T2D8C 000:771.511 - 0.005ms returns 0
T2D8C 000:771.515 JLINK_WriteReg(MSP, 0x20000800)
T2D8C 000:771.518 - 0.005ms returns 0
T2D8C 000:771.523 JLINK_WriteReg(PSP, 0x20000800)
T2D8C 000:771.526 - 0.005ms returns 0
T2D8C 000:771.530 JLINK_WriteReg(CFBP, 0x00000000)
T2D8C 000:771.534 - 0.005ms returns 0
T2D8C 000:771.538 JLINK_SetBPEx(Addr = 0x20000000, Type = 0xFFFFFFF2)
T2D8C 000:771.585 - 0.050ms returns 0x00000006
T2D8C 000:771.592 JLINK_Go()
T2D8C 000:771.600   CPU_ReadMem(4 bytes @ 0xE0001000)
T2D8C 000:785.010   CPU_WriteMem(4 bytes @ 0xE0001000)
T2D8C 000:788.183 - 16.604ms
T2D8C 000:788.214 JLINK_IsHalted()
T2D8C 000:789.365 - 1.161ms returns FALSE
T2D8C 000:789.406 JLINK_HasError()
T2D8C 000:794.384 JLINK_IsHalted()
T2D8C 000:796.853   CPU_ReadMem(2 bytes @ 0x20000000)
T2D8C 000:797.485 - 3.109ms returns TRUE
T2D8C 000:797.521 JLINK_ReadReg(R15 (PC))
T2D8C 000:797.528 - 0.008ms returns 0x20000000
T2D8C 000:797.532 JLINK_ClrBPEx(BPHandle = 0x00000006)
T2D8C 000:797.536 - 0.005ms returns 0x00
T2D8C 000:797.541 JLINK_ReadReg(R0)
T2D8C 000:797.544 - 0.005ms returns 0x00000000
T2D8C 000:797.851 JLINK_WriteMem(0x20000288, 0x178 Bytes, ...)
T2D8C 000:797.859   Data:  40 42 00 2B 00 D5 49 42 70 47 63 46 5B 10 00 D3 ...
T2D8C 000:797.869   CPU_WriteMem(376 bytes @ 0x20000288)
T2D8C 000:799.882 - 2.033ms returns 0x178
T2D8C 000:799.901 JLINK_WriteMem(0x20000400, 0x88 Bytes, ...)
T2D8C 000:799.904   Data:  C9 0F C9 07 D5 E7 9C 4D 4E 00 00 28 01 D0 01 24 ...
T2D8C 000:799.912   CPU_WriteMem(136 bytes @ 0x20000400)
T2D8C 000:801.218 - 1.330ms returns 0x88
T2D8C 000:801.246 JLINK_HasError()
T2D8C 000:801.251 JLINK_WriteReg(R0, 0x00000400)
T2D8C 000:801.256 - 0.006ms returns 0
T2D8C 000:801.260 JLINK_WriteReg(R1, 0x00000200)
T2D8C 000:801.264 - 0.005ms returns 0
T2D8C 000:801.268 JLINK_WriteReg(R2, 0x20000288)
T2D8C 000:801.272 - 0.005ms returns 0
T2D8C 000:801.276 JLINK_WriteReg(R3, 0x00000000)
T2D8C 000:801.279 - 0.005ms returns 0
T2D8C 000:801.284 JLINK_WriteReg(R4, 0x00000000)
T2D8C 000:801.287 - 0.005ms returns 0
T2D8C 000:801.291 JLINK_WriteReg(R5, 0x00000000)
T2D8C 000:801.295 - 0.005ms returns 0
T2D8C 000:801.299 JLINK_WriteReg(R6, 0x00000000)
T2D8C 000:801.302 - 0.005ms returns 0
T2D8C 000:801.306 JLINK_WriteReg(R7, 0x00000000)
T2D8C 000:801.310 - 0.005ms returns 0
T2D8C 000:801.314 JLINK_WriteReg(R8, 0x00000000)
T2D8C 000:801.318 - 0.005ms returns 0
T2D8C 000:801.322 JLINK_WriteReg(R9, 0x20000284)
T2D8C 000:801.325 - 0.005ms returns 0
T2D8C 000:801.329 JLINK_WriteReg(R10, 0x00000000)
T2D8C 000:801.333 - 0.005ms returns 0
T2D8C 000:801.337 JLINK_WriteReg(R11, 0x00000000)
T2D8C 000:801.341 - 0.005ms returns 0
T2D8C 000:801.345 JLINK_WriteReg(R12, 0x00000000)
T2D8C 000:801.348 - 0.005ms returns 0
T2D8C 000:801.352 JLINK_WriteReg(R13 (SP), 0x20000800)
T2D8C 000:801.357 - 0.005ms returns 0
T2D8C 000:801.361 JLINK_WriteReg(R14, 0x20000001)
T2D8C 000:801.364 - 0.005ms returns 0
T2D8C 000:801.368 JLINK_WriteReg(R15 (PC), 0x20000208)
T2D8C 000:801.372 - 0.005ms returns 0
T2D8C 000:801.376 JLINK_WriteReg(XPSR, 0x01000000)
T2D8C 000:801.380 - 0.005ms returns 0
T2D8C 000:801.384 JLINK_WriteReg(MSP, 0x20000800)
T2D8C 000:801.388 - 0.005ms returns 0
T2D8C 000:801.392 JLINK_WriteReg(PSP, 0x20000800)
T2D8C 000:801.395 - 0.005ms returns 0
T2D8C 000:801.399 JLINK_WriteReg(CFBP, 0x00000000)
T2D8C 000:801.403 - 0.005ms returns 0
T2D8C 000:801.407 JLINK_SetBPEx(Addr = 0x20000000, Type = 0xFFFFFFF2)
T2D8C 000:801.411 - 0.005ms returns 0x00000007
T2D8C 000:801.415 JLINK_Go()
T2D8C 000:801.422   CPU_ReadMem(4 bytes @ 0xE0001000)
T2D8C 000:802.089   CPU_WriteMem(4 bytes @ 0xE0001000)
T2D8C 000:805.329 - 3.924ms
T2D8C 000:805.364 JLINK_IsHalted()
T2D8C 000:805.899 - 0.538ms returns FALSE
T2D8C 000:805.919 JLINK_HasError()
T2D8C 000:807.978 JLINK_IsHalted()
T2D8C 000:808.525 - 0.551ms returns FALSE
T2D8C 000:808.545 JLINK_HasError()
T2D8C 000:810.114 JLINK_IsHalted()
T2D8C 000:810.705 - 0.595ms returns FALSE
T2D8C 000:810.730 JLINK_HasError()
T2D8C 000:812.108 JLINK_IsHalted()
T2D8C 000:814.598   CPU_ReadMem(2 bytes @ 0x20000000)
T2D8C 000:815.102 - 2.997ms returns TRUE
T2D8C 000:815.120 JLINK_ReadReg(R15 (PC))
T2D8C 000:815.125 - 0.006ms returns 0x20000000
T2D8C 000:815.130 JLINK_ClrBPEx(BPHandle = 0x00000007)
T2D8C 000:815.134 - 0.005ms returns 0x00
T2D8C 000:815.138 JLINK_ReadReg(R0)
T2D8C 000:815.145 - 0.010ms returns 0x00000000
T2D8C 000:815.462 JLINK_WriteMem(0x20000288, 0x178 Bytes, ...)
T2D8C 000:815.470   Data:  1B 0B 79 4D 52 42 9D 41 20 23 66 46 9B 1B 14 D3 ...
T2D8C 000:815.480   CPU_WriteMem(376 bytes @ 0x20000288)
T2D8C 000:817.540 - 2.082ms returns 0x178
T2D8C 000:817.566 JLINK_WriteMem(0x20000400, 0x88 Bytes, ...)
T2D8C 000:817.570   Data:  01 25 6D 05 E9 42 06 D0 19 46 A8 02 41 40 10 46 ...
T2D8C 000:817.579   CPU_WriteMem(136 bytes @ 0x20000400)
T2D8C 000:818.941 - 1.385ms returns 0x88
T2D8C 000:818.967 JLINK_HasError()
T2D8C 000:818.972 JLINK_WriteReg(R0, 0x00000600)
T2D8C 000:818.977 - 0.006ms returns 0
T2D8C 000:818.982 JLINK_WriteReg(R1, 0x00000200)
T2D8C 000:818.985 - 0.005ms returns 0
T2D8C 000:818.990 JLINK_WriteReg(R2, 0x20000288)
T2D8C 000:818.993 - 0.005ms returns 0
T2D8C 000:818.998 JLINK_WriteReg(R3, 0x00000000)
T2D8C 000:819.001 - 0.005ms returns 0
T2D8C 000:819.005 JLINK_WriteReg(R4, 0x00000000)
T2D8C 000:819.009 - 0.005ms returns 0
T2D8C 000:819.013 JLINK_WriteReg(R5, 0x00000000)
T2D8C 000:819.016 - 0.005ms returns 0
T2D8C 000:819.021 JLINK_WriteReg(R6, 0x00000000)
T2D8C 000:819.024 - 0.005ms returns 0
T2D8C 000:819.028 JLINK_WriteReg(R7, 0x00000000)
T2D8C 000:819.032 - 0.005ms returns 0
T2D8C 000:819.036 JLINK_WriteReg(R8, 0x00000000)
T2D8C 000:819.039 - 0.005ms returns 0
T2D8C 000:819.044 JLINK_WriteReg(R9, 0x20000284)
T2D8C 000:819.047 - 0.005ms returns 0
T2D8C 000:819.051 JLINK_WriteReg(R10, 0x00000000)
T2D8C 000:819.055 - 0.005ms returns 0
T2D8C 000:819.059 JLINK_WriteReg(R11, 0x00000000)
T2D8C 000:819.062 - 0.005ms returns 0
T2D8C 000:819.067 JLINK_WriteReg(R12, 0x00000000)
T2D8C 000:819.070 - 0.005ms returns 0
T2D8C 000:819.074 JLINK_WriteReg(R13 (SP), 0x20000800)
T2D8C 000:819.078 - 0.005ms returns 0
T2D8C 000:819.083 JLINK_WriteReg(R14, 0x20000001)
T2D8C 000:819.086 - 0.005ms returns 0
T2D8C 000:819.090 JLINK_WriteReg(R15 (PC), 0x20000208)
T2D8C 000:819.094 - 0.005ms returns 0
T2D8C 000:819.098 JLINK_WriteReg(XPSR, 0x01000000)
T2D8C 000:819.102 - 0.005ms returns 0
T2D8C 000:819.106 JLINK_WriteReg(MSP, 0x20000800)
T2D8C 000:819.109 - 0.005ms returns 0
T2D8C 000:819.114 JLINK_WriteReg(PSP, 0x20000800)
T2D8C 000:819.117 - 0.005ms returns 0
T2D8C 000:819.121 JLINK_WriteReg(CFBP, 0x00000000)
T2D8C 000:819.125 - 0.005ms returns 0
T2D8C 000:819.129 JLINK_SetBPEx(Addr = 0x20000000, Type = 0xFFFFFFF2)
T2D8C 000:819.133 - 0.005ms returns 0x00000008
T2D8C 000:819.137 JLINK_Go()
T2D8C 000:819.144   CPU_ReadMem(4 bytes @ 0xE0001000)
T2D8C 000:832.715   CPU_WriteMem(4 bytes @ 0xE0001000)
T2D8C 000:836.584 - 17.455ms
T2D8C 000:836.626 JLINK_IsHalted()
T2D8C 000:837.280 - 0.661ms returns FALSE
T2D8C 000:837.322 JLINK_HasError()
T2D8C 000:840.800 JLINK_IsHalted()
T2D8C 000:841.349 - 0.552ms returns FALSE
T2D8C 000:841.375 JLINK_HasError()
T2D8C 000:842.700 JLINK_IsHalted()
T2D8C 000:843.297 - 0.599ms returns FALSE
T2D8C 000:843.315 JLINK_HasError()
T2D8C 000:844.813 JLINK_IsHalted()
T2D8C 000:847.536   CPU_ReadMem(2 bytes @ 0x20000000)
T2D8C 000:848.016 - 3.206ms returns TRUE
T2D8C 000:848.034 JLINK_ReadReg(R15 (PC))
T2D8C 000:848.040 - 0.007ms returns 0x20000000
T2D8C 000:848.044 JLINK_ClrBPEx(BPHandle = 0x00000008)
T2D8C 000:848.048 - 0.005ms returns 0x00
T2D8C 000:848.052 JLINK_ReadReg(R0)
T2D8C 000:848.056 - 0.005ms returns 0x00000000
T2D8C 000:848.362 JLINK_WriteMem(0x20000288, 0x178 Bytes, ...)
T2D8C 000:848.369   Data:  10 43 0A 15 04 D0 01 24 E4 07 20 43 00 2A 05 DB ...
T2D8C 000:848.380   CPU_WriteMem(376 bytes @ 0x20000288)
T2D8C 000:850.395 - 2.041ms returns 0x178
T2D8C 000:850.436 JLINK_WriteMem(0x20000400, 0x88 Bytes, ...)
T2D8C 000:850.441   Data:  91 42 F6 D2 05 21 49 07 C8 42 01 D5 90 10 F0 BD ...
T2D8C 000:850.450   CPU_WriteMem(136 bytes @ 0x20000400)
T2D8C 000:851.559 - 1.129ms returns 0x88
T2D8C 000:851.582 JLINK_HasError()
T2D8C 000:851.588 JLINK_WriteReg(R0, 0x00000800)
T2D8C 000:851.594 - 0.007ms returns 0
T2D8C 000:851.599 JLINK_WriteReg(R1, 0x00000200)
T2D8C 000:851.602 - 0.008ms returns 0
T2D8C 000:851.612 JLINK_WriteReg(R2, 0x20000288)
T2D8C 000:851.615 - 0.005ms returns 0
T2D8C 000:851.619 JLINK_WriteReg(R3, 0x00000000)
T2D8C 000:851.623 - 0.005ms returns 0
T2D8C 000:851.627 JLINK_WriteReg(R4, 0x00000000)
T2D8C 000:851.630 - 0.005ms returns 0
T2D8C 000:851.635 JLINK_WriteReg(R5, 0x00000000)
T2D8C 000:851.638 - 0.005ms returns 0
T2D8C 000:851.642 JLINK_WriteReg(R6, 0x00000000)
T2D8C 000:851.646 - 0.005ms returns 0
T2D8C 000:851.650 JLINK_WriteReg(R7, 0x00000000)
T2D8C 000:851.653 - 0.005ms returns 0
T2D8C 000:851.658 JLINK_WriteReg(R8, 0x00000000)
T2D8C 000:851.661 - 0.005ms returns 0
T2D8C 000:851.665 JLINK_WriteReg(R9, 0x20000284)
T2D8C 000:851.669 - 0.005ms returns 0
T2D8C 000:851.673 JLINK_WriteReg(R10, 0x00000000)
T2D8C 000:851.676 - 0.005ms returns 0
T2D8C 000:851.681 JLINK_WriteReg(R11, 0x00000000)
T2D8C 000:851.684 - 0.005ms returns 0
T2D8C 000:851.688 JLINK_WriteReg(R12, 0x00000000)
T2D8C 000:851.692 - 0.005ms returns 0
T2D8C 000:851.696 JLINK_WriteReg(R13 (SP), 0x20000800)
T2D8C 000:851.700 - 0.005ms returns 0
T2D8C 000:851.704 JLINK_WriteReg(R14, 0x20000001)
T2D8C 000:851.708 - 0.005ms returns 0
T2D8C 000:851.712 JLINK_WriteReg(R15 (PC), 0x20000208)
T2D8C 000:851.716 - 0.005ms returns 0
T2D8C 000:851.720 JLINK_WriteReg(XPSR, 0x01000000)
T2D8C 000:851.723 - 0.005ms returns 0
T2D8C 000:851.727 JLINK_WriteReg(MSP, 0x20000800)
T2D8C 000:851.731 - 0.005ms returns 0
T2D8C 000:851.735 JLINK_WriteReg(PSP, 0x20000800)
T2D8C 000:851.738 - 0.005ms returns 0
T2D8C 000:851.743 JLINK_WriteReg(CFBP, 0x00000000)
T2D8C 000:851.746 - 0.005ms returns 0
T2D8C 000:851.750 JLINK_SetBPEx(Addr = 0x20000000, Type = 0xFFFFFFF2)
T2D8C 000:851.755 - 0.005ms returns 0x00000009
T2D8C 000:851.759 JLINK_Go()
T2D8C 000:851.766   CPU_ReadMem(4 bytes @ 0xE0001000)
T2D8C 000:852.611   CPU_WriteMem(4 bytes @ 0xE0001000)
T2D8C 000:855.522 - 3.769ms
T2D8C 000:855.550 JLINK_IsHalted()
T2D8C 000:856.012 - 0.464ms returns FALSE
T2D8C 000:856.030 JLINK_HasError()
T2D8C 000:857.210 JLINK_IsHalted()
T2D8C 000:871.749   CPU_ReadMem(2 bytes @ 0x20000000)
T2D8C 000:872.341 - 15.138ms returns TRUE
T2D8C 000:872.368 JLINK_ReadReg(R15 (PC))
T2D8C 000:872.374 - 0.007ms returns 0x20000000
T2D8C 000:872.381 JLINK_ClrBPEx(BPHandle = 0x00000009)
T2D8C 000:872.385 - 0.005ms returns 0x00
T2D8C 000:872.390 JLINK_ReadReg(R0)
T2D8C 000:872.393 - 0.005ms returns 0x00000000
T2D8C 000:872.703 JLINK_WriteMem(0x20000288, 0x178 Bytes, ...)
T2D8C 000:872.710   Data:  00 2A 02 D0 18 43 00 2A 04 DB A2 1A 00 2A 0C DD ...
T2D8C 000:872.719   CPU_WriteMem(376 bytes @ 0x20000288)
T2D8C 000:874.762 - 2.063ms returns 0x178
T2D8C 000:874.785 JLINK_WriteMem(0x20000400, 0x88 Bytes, ...)
T2D8C 000:874.788   Data:  53 F8 AE 46 05 00 69 46 53 46 C0 08 C0 00 85 46 ...
T2D8C 000:874.796   CPU_WriteMem(136 bytes @ 0x20000400)
T2D8C 000:875.888 - 1.107ms returns 0x88
T2D8C 000:875.906 JLINK_HasError()
T2D8C 000:875.911 JLINK_WriteReg(R0, 0x00000A00)
T2D8C 000:875.916 - 0.006ms returns 0
T2D8C 000:875.920 JLINK_WriteReg(R1, 0x00000200)
T2D8C 000:875.923 - 0.005ms returns 0
T2D8C 000:875.927 JLINK_WriteReg(R2, 0x20000288)
T2D8C 000:875.931 - 0.005ms returns 0
T2D8C 000:875.935 JLINK_WriteReg(R3, 0x00000000)
T2D8C 000:875.938 - 0.005ms returns 0
T2D8C 000:875.942 JLINK_WriteReg(R4, 0x00000000)
T2D8C 000:875.946 - 0.004ms returns 0
T2D8C 000:875.949 JLINK_WriteReg(R5, 0x00000000)
T2D8C 000:875.953 - 0.004ms returns 0
T2D8C 000:875.957 JLINK_WriteReg(R6, 0x00000000)
T2D8C 000:875.960 - 0.004ms returns 0
T2D8C 000:875.964 JLINK_WriteReg(R7, 0x00000000)
T2D8C 000:875.967 - 0.004ms returns 0
T2D8C 000:875.971 JLINK_WriteReg(R8, 0x00000000)
T2D8C 000:875.974 - 0.004ms returns 0
T2D8C 000:875.978 JLINK_WriteReg(R9, 0x20000284)
T2D8C 000:875.981 - 0.004ms returns 0
T2D8C 000:875.985 JLINK_WriteReg(R10, 0x00000000)
T2D8C 000:875.989 - 0.004ms returns 0
T2D8C 000:875.992 JLINK_WriteReg(R11, 0x00000000)
T2D8C 000:875.996 - 0.004ms returns 0
T2D8C 000:876.000 JLINK_WriteReg(R12, 0x00000000)
T2D8C 000:876.006 - 0.008ms returns 0
T2D8C 000:876.011 JLINK_WriteReg(R13 (SP), 0x20000800)
T2D8C 000:876.015 - 0.005ms returns 0
T2D8C 000:876.018 JLINK_WriteReg(R14, 0x20000001)
T2D8C 000:876.022 - 0.004ms returns 0
T2D8C 000:876.026 JLINK_WriteReg(R15 (PC), 0x20000208)
T2D8C 000:876.029 - 0.005ms returns 0
T2D8C 000:876.033 JLINK_WriteReg(XPSR, 0x01000000)
T2D8C 000:876.036 - 0.004ms returns 0
T2D8C 000:876.040 JLINK_WriteReg(MSP, 0x20000800)
T2D8C 000:876.043 - 0.004ms returns 0
T2D8C 000:876.047 JLINK_WriteReg(PSP, 0x20000800)
T2D8C 000:876.051 - 0.004ms returns 0
T2D8C 000:876.055 JLINK_WriteReg(CFBP, 0x00000000)
T2D8C 000:876.058 - 0.004ms returns 0
T2D8C 000:876.062 JLINK_SetBPEx(Addr = 0x20000000, Type = 0xFFFFFFF2)
T2D8C 000:876.066 - 0.005ms returns 0x0000000A
T2D8C 000:876.070 JLINK_Go()
T2D8C 000:876.076   CPU_ReadMem(4 bytes @ 0xE0001000)
T2D8C 000:876.599   CPU_WriteMem(4 bytes @ 0xE0001000)
T2D8C 000:879.520 - 3.455ms
T2D8C 000:879.540 JLINK_IsHalted()
T2D8C 000:880.181 - 0.646ms returns FALSE
T2D8C 000:880.210 JLINK_HasError()
T2D8C 000:883.235 JLINK_IsHalted()
T2D8C 000:883.793 - 0.567ms returns FALSE
T2D8C 000:883.831 JLINK_HasError()
T2D8C 000:885.316 JLINK_IsHalted()
T2D8C 000:885.912 - 0.599ms returns FALSE
T2D8C 000:885.931 JLINK_HasError()
T2D8C 000:887.465 JLINK_IsHalted()
T2D8C 000:889.814   CPU_ReadMem(2 bytes @ 0x20000000)
T2D8C 000:890.296 - 2.833ms returns TRUE
T2D8C 000:890.313 JLINK_ReadReg(R15 (PC))
T2D8C 000:890.318 - 0.006ms returns 0x20000000
T2D8C 000:890.322 JLINK_ClrBPEx(BPHandle = 0x0000000A)
T2D8C 000:890.326 - 0.005ms returns 0x00
T2D8C 000:890.330 JLINK_ReadReg(R0)
T2D8C 000:890.333 - 0.004ms returns 0x00000000
T2D8C 000:890.642 JLINK_WriteMem(0x20000288, 0x178 Bytes, ...)
T2D8C 000:890.649   Data:  00 0E 00 06 04 43 09 E0 41 0F 20 02 49 07 00 0A ...
T2D8C 000:890.658   CPU_WriteMem(376 bytes @ 0x20000288)
T2D8C 000:892.628 - 1.990ms returns 0x178
T2D8C 000:892.655 JLINK_WriteMem(0x20000400, 0x88 Bytes, ...)
T2D8C 000:892.658   Data:  00 F0 3A F8 21 68 60 68 08 43 04 49 49 68 2F 22 ...
T2D8C 000:892.667   CPU_WriteMem(136 bytes @ 0x20000400)
T2D8C 000:893.972 - 1.322ms returns 0x88
T2D8C 000:894.012 JLINK_HasError()
T2D8C 000:894.017 JLINK_WriteReg(R0, 0x00000C00)
T2D8C 000:894.024 - 0.008ms returns 0
T2D8C 000:894.028 JLINK_WriteReg(R1, 0x00000200)
T2D8C 000:894.032 - 0.005ms returns 0
T2D8C 000:894.037 JLINK_WriteReg(R2, 0x20000288)
T2D8C 000:894.041 - 0.006ms returns 0
T2D8C 000:894.046 JLINK_WriteReg(R3, 0x00000000)
T2D8C 000:894.050 - 0.005ms returns 0
T2D8C 000:894.054 JLINK_WriteReg(R4, 0x00000000)
T2D8C 000:894.058 - 0.005ms returns 0
T2D8C 000:894.062 JLINK_WriteReg(R5, 0x00000000)
T2D8C 000:894.066 - 0.005ms returns 0
T2D8C 000:894.071 JLINK_WriteReg(R6, 0x00000000)
T2D8C 000:894.074 - 0.008ms returns 0
T2D8C 000:894.081 JLINK_WriteReg(R7, 0x00000000)
T2D8C 000:894.085 - 0.005ms returns 0
T2D8C 000:894.089 JLINK_WriteReg(R8, 0x00000000)
T2D8C 000:894.092 - 0.005ms returns 0
T2D8C 000:894.096 JLINK_WriteReg(R9, 0x20000284)
T2D8C 000:894.100 - 0.005ms returns 0
T2D8C 000:894.104 JLINK_WriteReg(R10, 0x00000000)
T2D8C 000:894.108 - 0.005ms returns 0
T2D8C 000:894.112 JLINK_WriteReg(R11, 0x00000000)
T2D8C 000:894.115 - 0.005ms returns 0
T2D8C 000:894.119 JLINK_WriteReg(R12, 0x00000000)
T2D8C 000:894.123 - 0.005ms returns 0
T2D8C 000:894.127 JLINK_WriteReg(R13 (SP), 0x20000800)
T2D8C 000:894.132 - 0.006ms returns 0
T2D8C 000:894.136 JLINK_WriteReg(R14, 0x20000001)
T2D8C 000:894.139 - 0.005ms returns 0
T2D8C 000:894.143 JLINK_WriteReg(R15 (PC), 0x20000208)
T2D8C 000:894.147 - 0.005ms returns 0
T2D8C 000:894.151 JLINK_WriteReg(XPSR, 0x01000000)
T2D8C 000:894.154 - 0.005ms returns 0
T2D8C 000:894.158 JLINK_WriteReg(MSP, 0x20000800)
T2D8C 000:894.161 - 0.004ms returns 0
T2D8C 000:894.165 JLINK_WriteReg(PSP, 0x20000800)
T2D8C 000:894.168 - 0.004ms returns 0
T2D8C 000:894.172 JLINK_WriteReg(CFBP, 0x00000000)
T2D8C 000:894.175 - 0.004ms returns 0
T2D8C 000:894.179 JLINK_SetBPEx(Addr = 0x20000000, Type = 0xFFFFFFF2)
T2D8C 000:894.187 - 0.010ms returns 0x0000000B
T2D8C 000:894.192 JLINK_Go()
T2D8C 000:894.199   CPU_ReadMem(4 bytes @ 0xE0001000)
T2D8C 000:894.886   CPU_WriteMem(4 bytes @ 0xE0001000)
T2D8C 000:898.930 - 4.742ms
T2D8C 000:898.955 JLINK_IsHalted()
T2D8C 000:899.608 - 0.654ms returns FALSE
T2D8C 000:899.627 JLINK_HasError()
T2D8C 000:901.869 JLINK_IsHalted()
T2D8C 000:916.327   CPU_ReadMem(2 bytes @ 0x20000000)
T2D8C 000:917.239 - 15.378ms returns TRUE
T2D8C 000:917.280 JLINK_ReadReg(R15 (PC))
T2D8C 000:917.287 - 0.008ms returns 0x20000000
T2D8C 000:917.292 JLINK_ClrBPEx(BPHandle = 0x0000000B)
T2D8C 000:917.296 - 0.005ms returns 0x00
T2D8C 000:917.300 JLINK_ReadReg(R0)
T2D8C 000:917.304 - 0.005ms returns 0x00000000
T2D8C 000:917.637 JLINK_WriteMem(0x20000288, 0x178 Bytes, ...)
T2D8C 000:917.644   Data:  11 43 0F 4A 51 60 C2 68 81 68 11 43 02 69 11 43 ...
T2D8C 000:917.653   CPU_WriteMem(376 bytes @ 0x20000288)
T2D8C 000:920.057 - 2.428ms returns 0x178
T2D8C 000:920.098 JLINK_WriteMem(0x20000400, 0x88 Bytes, ...)
T2D8C 000:920.103   Data:  1A 43 02 61 03 E0 02 69 52 08 52 00 02 61 70 47 ...
T2D8C 000:920.112   CPU_WriteMem(136 bytes @ 0x20000400)
T2D8C 000:921.575 - 1.485ms returns 0x88
T2D8C 000:921.618 JLINK_HasError()
T2D8C 000:921.623 JLINK_WriteReg(R0, 0x00000E00)
T2D8C 000:921.629 - 0.007ms returns 0
T2D8C 000:921.633 JLINK_WriteReg(R1, 0x00000200)
T2D8C 000:921.637 - 0.005ms returns 0
T2D8C 000:921.641 JLINK_WriteReg(R2, 0x20000288)
T2D8C 000:921.645 - 0.005ms returns 0
T2D8C 000:921.649 JLINK_WriteReg(R3, 0x00000000)
T2D8C 000:921.653 - 0.005ms returns 0
T2D8C 000:921.657 JLINK_WriteReg(R4, 0x00000000)
T2D8C 000:921.660 - 0.005ms returns 0
T2D8C 000:921.665 JLINK_WriteReg(R5, 0x00000000)
T2D8C 000:921.668 - 0.005ms returns 0
T2D8C 000:921.672 JLINK_WriteReg(R6, 0x00000000)
T2D8C 000:921.676 - 0.005ms returns 0
